
T1088 000:406 SEGGER J-Link V4.24b Log File (0001ms, 0405ms total)
T1088 000:406 DLL Compiled: Feb 22 2011 20:47:17 (0001ms, 0405ms total)
T1088 000:406 Logging started @ 2013-12-11 15:57 (0001ms, 0405ms total)
T1088 000:407 JLINK_SetWarnOutHandler(...) (0000ms, 0406ms total)
T1088 000:407 JLINK_OpenEx(...)
Firmware: J-Link ARM-OB STM32 compiled Dec 15 2010 11:30:03
Hardware: V7.00
S/N: 20090928
Feature(s): RDI,FlashDL,FlashBP,JFlash,GDBFull  returns O.K. (0137ms, 0406ms total)
T1088 000:544 JLINK_SetErrorOutHandler(...) (0000ms, 0543ms total)
T1088 000:544 JLINK_ExecCommand("ProjectFile = "D:\Projetos\Painel Motel\Firmware\Painel_Motel_r101\JLinkSettings.ini"", ...)  returns 0x00 (0000ms, 0543ms total)
T1088 000:550 JLINK_ExecCommand("DisableConnectionTimeout", ...)  returns 0x00 (0000ms, 0543ms total)
T1088 000:550 JLINK_TIF_Select(JLINKARM_TIF_JTAG)  returns 0x00 (0000ms, 0543ms total)
T1088 000:550 JLINK_SetSpeed(2000) (0000ms, 0543ms total)
T1088 000:550 JLINK_GetHardwareVersion()  returns 0x11170 (0000ms, 0543ms total)
T1088 000:550 JLINK_GetDLLVersion()  returns 42402 (0000ms, 0543ms total)
T1088 000:550 JLINK_GetFirmwareString(...) (0000ms, 0543ms total)
T1088 000:554 JLINK_GetDLLVersion()  returns 42402 (0000ms, 0543ms total)
T1088 000:554 JLINK_GetCompileDateTime() (0000ms, 0543ms total)
T1088 000:556 JLINK_GetFirmwareString(...) (0000ms, 0543ms total)
T1088 000:559 JLINK_GetHardwareVersion()  returns 0x11170 (0000ms, 0543ms total)
T1088 000:569 JLINK_GetIdData(...) >0x2F8 JTAG>TotalIRLen = 4, IRPrint = 0x01 >0x30 JTAG> >0x210 JTAG> >0x78 JTAG> >0x40 JTAG> >0x40 JTAG> >0x48 JTAG> >0x40 JTAG> >0x40 JTAG> >0x40 JTAG> >0x48 JTAG> >0x40 JTAG> >0x40 JTAG> >0x30 JTAG> >0x40 JTAG> >0x48 JTAG> >0x40 JTAG> >0x30 JTAG> >0x78 JTAG> >0x40 JTAG> >0x40 JTAG> >0x48 JTAG> >0x40 JTAG> >0x40 JTAG> >0x40 JTAG> >0x48 JTAG> >0x40 JTAG> >0x40 JTAG> >0x30 JTAG> >0x40 JTAG> >0x40 JTAG> >0x40 JTAG> >0x40 JTAG> >0x40 JTAG> >0x48 JTAG> >0x40 JTAG>
 >0x78 JTAG> >0x40 JTAG> >0x30 JTAG> >0x40 JTAG> >0x40 JTAG> >0x40 JTAG> >0x40 JTAG> >0x40 JTAG> >0x48 JTAG> >0x40 JTAG> >0x78 JTAG> >0x40 JTAG> >0x30 JTAG> >0x40 JTAG> >0x48 JTAG> >0x40 JTAG> >0x40 JTAG> >0x40 JTAG> >0x30 JTAG> >0x40 JTAG> >0x48 JTAG> >0x40 JTAG>Found Cortex-M3 r2p0, Little endian. >0x48 JTAG> >0x48 JTAG> >0x40 JTAG> >0x40 JTAG> >0x30 JTAG> >0x30 JTAG> >0x48 JTAG> >0x40 JTAG> >0x78 JTAG> >0x40 JTAG> >0x30 JTAG> >0x40 JTAG> >0x48 JTAG> >0x40 JTAG> >0x40 JTAG> >0x40 JTAG> >0x30 JTAG>
 >0x40 JTAG> >0x48 JTAG> >0x40 JTAG>TPIU fitted. >0x40 JTAG> >0x40 JTAG> >0x30 JTAG> >0x40 JTAG> >0x48 JTAG> >0x40 JTAG>ETM fitted. >0x40 JTAG> >0x40 JTAG> >0x30 JTAG> >0x40 JTAG> >0x48 JTAG> >0x40 JTAG> >0x40 JTAG> >0x40 JTAG> >0x30 JTAG> >0x40 JTAG> >0x48 JTAG> >0x40 JTAG>  FPUnit: 6 code (BP) slots and 2 literal slots >0x40 JTAG> >0x40 JTAG> >0x30 JTAG> >0x40 JTAG> >0x48 JTAG> >0x40 JTAG> ScanLen=4 NumDevices=1 aId[0]=0x4BA00477 aIrRead[0]=0 aScanLen[0]=0 aScanRead[0]=0 (0062ms, 0543ms total)
T1088 000:631 JLINK_JTAG_GetDeviceID(DeviceIndex = 0)  returns 0x4BA00477 (0000ms, 0605ms total)
T1088 000:631 JLINK_JTAG_GetDeviceInfo(DeviceIndex = 0)  returns 0x00 (0000ms, 0605ms total)
T1088 000:631 JLINK_GetDebugInfo(0x100) -- Value=0xE00FF003  returns 0x00 (0000ms, 0605ms total)
T1088 000:634 JLINK_ReadMem (0xE00FFFF0, 0x0010 Bytes, ...) -- CPU is running >0x290 JTAG> -- Data:  0D 00 00 00 10 00 00 00 05 00 00 00 B1 00 00 00  returns 0x00 (0001ms, 0605ms total)
T1088 000:635 JLINK_ReadMem (0xE00FFFD0, 0x0020 Bytes, ...) -- CPU is running >0x370 JTAG> -- Data:  00 00 00 00 00 00 00 00 00 00 00 00 00 00 00 00 ...  returns 0x00 (0002ms, 0606ms total)
T1088 000:637 JLINK_ReadMem (0xE00FF000, 0x0018 Bytes, ...) -- CPU is running >0x2F8 JTAG> -- Data:  03 F0 F0 FF 03 20 F0 FF 03 30 F0 FF 03 10 F0 FF ...  returns 0x00 (0002ms, 0608ms total)
T1088 000:639 JLINK_ReadMemU32(0xE000ED00, 0x0001 Items, ...) -- CPU is running >0x1D8 JTAG> -- Data:  30 C2 2F 41  returns 0x01 (0001ms, 0610ms total)
T1088 000:640 JLINK_SetResetType(JLINKARM_RESET_TYPE_NORMAL)  returns JLINKARM_RESET_TYPE_NORMAL (0000ms, 0611ms total)
T1088 000:640 JLINK_Reset() >0x2F8 JTAG>TotalIRLen = 4, IRPrint = 0x01 >0x30 JTAG> >0x210 JTAG> >0x78 JTAG> >0x40 JTAG> >0x40 JTAG> >0x48 JTAG> >0x40 JTAG> >0x40 JTAG> >0x40 JTAG> >0x48 JTAG> >0x40 JTAG> >0x40 JTAG> >0x30 JTAG> >0x40 JTAG> >0x48 JTAG> >0x40 JTAG> >0x30 JTAG> >0x78 JTAG> >0x40 JTAG> >0x40 JTAG> >0x48 JTAG> >0x40 JTAG> >0x40 JTAG> >0x40 JTAG> >0x48 JTAG> >0x40 JTAG> >0x40 JTAG> >0x30 JTAG> >0x40 JTAG> >0x40 JTAG> >0x40 JTAG> >0x40 JTAG> >0x40 JTAG> >0x48 JTAG> >0x40 JTAG> >0x78 JTAG>
 >0x40 JTAG> >0x30 JTAG> >0x40 JTAG> >0x40 JTAG> >0x40 JTAG> >0x40 JTAG> >0x40 JTAG> >0x48 JTAG> >0x40 JTAG> >0x78 JTAG> >0x40 JTAG> >0x30 JTAG> >0x40 JTAG> >0x48 JTAG> >0x40 JTAG> >0x40 JTAG> >0x40 JTAG> >0x30 JTAG> >0x40 JTAG> >0x48 JTAG> >0x40 JTAG>Found Cortex-M3 r2p0, Little endian. >0x48 JTAG> >0x48 JTAG> >0x40 JTAG> >0x40 JTAG> >0x30 JTAG> >0x30 JTAG> >0x48 JTAG> >0x40 JTAG> >0x78 JTAG> >0x40 JTAG> >0x30 JTAG> >0x40 JTAG> >0x48 JTAG> >0x40 JTAG> >0x40 JTAG> >0x40 JTAG> >0x30 JTAG> >0x40 JTAG>
 >0x48 JTAG> >0x40 JTAG>TPIU fitted. >0x40 JTAG> >0x40 JTAG> >0x30 JTAG> >0x40 JTAG> >0x48 JTAG> >0x40 JTAG>ETM fitted. >0x40 JTAG> >0x40 JTAG> >0x30 JTAG> >0x40 JTAG> >0x48 JTAG> >0x40 JTAG> >0x40 JTAG> >0x40 JTAG> >0x30 JTAG> >0x40 JTAG> >0x48 JTAG> >0x40 JTAG>  FPUnit: 6 code (BP) slots and 2 literal slots >0x40 JTAG> >0x40 JTAG> >0x30 JTAG> >0x40 JTAG> >0x48 JTAG> >0x40 JTAG> -- CPU is running >0x1E0 JTAG> -- CPU is running >0x1D0 JTAG> -- CPU is running >0x208 JTAG> -- CPU is running >0x1D8 JTAG>
 -- CPU is running >0x1D8 JTAG> -- CPU is running >0x1D0 JTAG> -- CPU is running >0x1D0 JTAG> -- CPU is running >0x1D8 JTAG> >0x170 JTAG> >0x1598 JTAG> >0x40 JTAG> >0x40 JTAG> >0x30 JTAG> >0x40 JTAG> >0x48 JTAG> >0x40 JTAG> >0x1D0 JTAG> >0x1D0 JTAG> >0x1D0 JTAG> >0x1D0 JTAG> >0x1D0 JTAG> >0x1D0 JTAG> >0x1D0 JTAG> >0x1D0 JTAG> >0x1D0 JTAG> >0x1D0 JTAG> >0x1D0 JTAG> >0x1D0 JTAG> >0x1D0 JTAG> >0x1D0 JTAG> >0x1D0 JTAG> >0x1D0 JTAG> >0x1D0 JTAG> >0x1D0 JTAG> >0x1D0 JTAG> >0x1D0 JTAG> >0x1D0 JTAG> >0x218 JTAG>
 >0x218 JTAG> >0x170 JTAG> >0x1598 JTAG> >0x1D0 JTAG> >0x1D0 JTAG> >0x1D8 JTAG> >0x1D8 JTAG> (0234ms, 0611ms total)
T1088 000:874 JLINK_ExecCommand("Device = LPC1768", ...)
                JLINK_ExecCommand("map ram 0x10000000 - 0x10007FFF", ...)  returns 0x00 (0000ms, 0000ms total)
                JLINK_AddMirrorAreaEx(Addr = 0x00000000, Size = 0x00000000) (0000ms, 0000ms total)
                returns 0x00 (0001ms, 0845ms total)
T1088 000:875 JLINK_Halt() >0x2F8 JTAG>TotalIRLen = 4, IRPrint = 0x01 >0x30 JTAG> >0x210 JTAG> >0x78 JTAG> >0x40 JTAG> >0x40 JTAG> >0x48 JTAG> >0x40 JTAG> >0x40 JTAG> >0x40 JTAG> >0x48 JTAG> >0x40 JTAG> >0x40 JTAG> >0x30 JTAG> >0x40 JTAG> >0x48 JTAG> >0x40 JTAG>  returns 0x00 (0013ms, 0846ms total)
T1088 000:888 JLINK_IsHalted()  returns TRUE (0000ms, 0859ms total)
T1088 000:888 JLINK_ReadMemU32(0xE000EDF0, 0x0001 Items, ...) >0x30 JTAG> >0x78 JTAG> >0x40 JTAG> >0x40 JTAG> >0x48 JTAG> >0x40 JTAG> >0x40 JTAG> >0x40 JTAG> >0x48 JTAG> >0x40 JTAG> >0x40 JTAG> >0x30 JTAG> >0x40 JTAG> >0x40 JTAG> >0x40 JTAG> >0x40 JTAG> >0x40 JTAG> >0x48 JTAG> >0x40 JTAG> >0x78 JTAG> >0x40 JTAG> >0x30 JTAG> >0x40 JTAG> >0x40 JTAG> >0x40 JTAG> >0x40 JTAG> >0x40 JTAG> >0x48 JTAG> >0x40 JTAG> >0x78 JTAG> >0x40 JTAG> >0x30 JTAG> >0x40 JTAG> >0x48 JTAG> >0x40 JTAG> >0x40 JTAG> >0x40 JTAG>
 >0x30 JTAG> >0x40 JTAG> >0x48 JTAG> >0x40 JTAG>Found Cortex-M3 r2p0, Little endian. >0x48 JTAG> >0x48 JTAG> >0x40 JTAG> >0x40 JTAG> >0x30 JTAG> >0x30 JTAG> >0x48 JTAG> >0x40 JTAG> >0x78 JTAG> >0x40 JTAG> >0x30 JTAG> >0x40 JTAG> >0x48 JTAG> >0x40 JTAG> >0x40 JTAG> >0x40 JTAG> >0x30 JTAG> >0x40 JTAG> >0x48 JTAG> >0x40 JTAG>TPIU fitted. >0x40 JTAG> >0x40 JTAG> >0x30 JTAG> >0x40 JTAG> >0x48 JTAG> >0x40 JTAG>ETM fitted. >0x40 JTAG> >0x40 JTAG> >0x30 JTAG> >0x40 JTAG> >0x48 JTAG> >0x40 JTAG> >0x40 JTAG>
 >0x40 JTAG> >0x30 JTAG> >0x40 JTAG> >0x48 JTAG> >0x40 JTAG>  FPUnit: 6 code (BP) slots and 2 literal slots >0x40 JTAG> >0x40 JTAG> >0x30 JTAG> >0x40 JTAG> >0x48 JTAG> >0x40 JTAG> >0x1E0 JTAG> -- Data:  03 00 03 00  returns 0x01 (0050ms, 0859ms total)
T1088 000:938 JLINK_WriteU32(0xE000EDF0, 0xA05F0003) >0x1D0 JTAG>  returns 0x00 (0001ms, 0909ms total)
T1088 000:939 JLINK_WriteU32(0xE000EDFC, 0x01000000) >0x1D0 JTAG>  returns 0x00 (0001ms, 0910ms total)
T1088 000:940 JLINK_ReadMemU32(0xE0002000, 0x0001 Items, ...) >0x1D8 JTAG> -- Data:  60 02 00 00  returns 0x01 (0001ms, 0911ms total)
T1088 000:941 JLINK_ReadMemU32(0xE0001000, 0x0001 Items, ...) >0x1D8 JTAG> -- Data:  01 00 00 40  returns 0x01 (0001ms, 0912ms total)
T1088 000:952 JLINK_GetHWStatus(...)  returns 0x00 (0000ms, 0913ms total)
T1088 000:959 JLINK_GetNumBPUnits(Type = 0xFFFFFF00)  returns 0x06 (0000ms, 0913ms total)
T1088 000:959 JLINK_GetNumBPUnits(Type = 0xF0)  returns 0x800 (0000ms, 0913ms total)
T1088 000:959 JLINK_GetNumWPUnits()  returns 0x04 (0000ms, 0913ms total)
T1088 000:967 JLINK_GetSpeed()  returns 0x7D0 (0001ms, 0913ms total)
T1088 000:972 JLINK_ReadMemU32(0xE000E004, 0x0001 Items, ...) >0x1D8 JTAG> -- Data:  01 00 00 00  returns 0x01 (0001ms, 0914ms total)
T1088 000:973 JLINK_WriteMem(0xE0001000, 0x001C Bytes, ...) -- Data:  01 00 00 00 00 00 00 00 00 00 00 00 00 00 00 00 ... >0x2F0 JTAG>  returns 0x1C (0002ms, 0915ms total)
T1088 000:975 JLINK_ReadMem (0xE0001000, 0x001C Bytes, ...) >0x338 JTAG> -- Data:  01 00 00 40 00 00 00 00 00 00 00 00 00 00 00 00 ...  returns 0x00 (0002ms, 0917ms total)
T1088 000:977 JLINK_Halt()  returns 0x00 (0000ms, 0919ms total)
T1088 000:977 JLINK_IsHalted()  returns TRUE (0000ms, 0919ms total)
T1088 000:981 JLINK_WriteMem(0x10000000, 0x01D4 Bytes, ...) -- Data:  00 BE 0A E0 0D 78 2D 06 68 40 08 24 40 00 00 D3 ... >0x1720 JTAG>  returns 0x1D4 (0010ms, 0919ms total)
T1088 000:991 JLINK_WriteReg(R0, 0x00000000)  returns 0x00 (0000ms, 0929ms total)
T1088 000:991 JLINK_WriteReg(R1, 0x00B71B00)  returns 0x00 (0000ms, 0929ms total)
T1088 000:991 JLINK_WriteReg(R2, 0x00000001)  returns 0x00 (0000ms, 0929ms total)
T1088 000:991 JLINK_WriteReg(R3, 0x00000000)  returns 0x00 (0000ms, 0929ms total)
T1088 000:991 JLINK_WriteReg(R4, 0x00000000)  returns 0x00 (0000ms, 0929ms total)
T1088 000:991 JLINK_WriteReg(R5, 0x00000000)  returns 0x00 (0000ms, 0929ms total)
T1088 000:991 JLINK_WriteReg(R6, 0x00000000)  returns 0x00 (0000ms, 0929ms total)
T1088 000:991 JLINK_WriteReg(R7, 0x00000000)  returns 0x00 (0000ms, 0929ms total)
T1088 000:991 JLINK_WriteReg(R8, 0x00000000)  returns 0x00 (0000ms, 0929ms total)
T1088 000:991 JLINK_WriteReg(R9, 0x100001CC)  returns 0x00 (0000ms, 0929ms total)
T1088 000:992 JLINK_WriteReg(R10, 0x00000000)  returns 0x00 (0000ms, 0929ms total)
T1088 000:992 JLINK_WriteReg(R11, 0x00000000)  returns 0x00 (0000ms, 0929ms total)
T1088 000:992 JLINK_WriteReg(R12, 0x00000000)  returns 0x00 (0000ms, 0929ms total)
T1088 000:992 JLINK_WriteReg(R13, 0x10000800)  returns 0x00 (0000ms, 0929ms total)
T1088 000:992 JLINK_WriteReg(R14, 0x10000001)  returns 0x00 (0000ms, 0929ms total)
T1088 000:992 JLINK_WriteReg(R15, 0x10000044)  returns 0x00 (0000ms, 0929ms total)
T1088 000:992 JLINK_WriteReg(XPSR, 0x01000000)  returns 0x00 (0000ms, 0929ms total)
T1088 000:992 JLINK_WriteReg(MSP, 0x10000800)  returns 0x00 (0000ms, 0929ms total)
T1088 000:992 JLINK_WriteReg(PSP, 0x10000800)  returns 0x00 (0000ms, 0929ms total)
T1088 000:992 JLINK_WriteReg(CFBP, 0x00000000)  returns 0x00 (0000ms, 0929ms total)
T1088 000:992 JLINK_SetBPEx(Addr = 0x10000000, Type = 0xFFFFFFF2)  returns 0x00000001 (0000ms, 0929ms total)
T1088 000:992 JLINK_Go() >0x1D0 JTAG> >0x1D0 JTAG> >0x1D0 JTAG> >0x1D0 JTAG> >0x1D0 JTAG> >0x1D0 JTAG> >0x1D0 JTAG> >0x2C8 JTAG> >0x1E8 JTAG> >0x1E8 JTAG> >0x1E8 JTAG> >0x1E8 JTAG> >0x1E8 JTAG> >0x1E8 JTAG> >0x1E8 JTAG> >0x1E8 JTAG> >0x1E8 JTAG> >0x1E8 JTAG> >0x1E8 JTAG> >0x1E8 JTAG> >0x1E8 JTAG> >0x218 JTAG> >0x218 JTAG> (0027ms, 0929ms total)
T1088 001:019 JLINK_IsHalted() >0x170 JTAG> >0x1598 JTAG>  returns TRUE (0011ms, 0956ms total)
T1088 001:030 JLINK_ReadReg(R15)  returns 0x10000000 (0000ms, 0956ms total)
T1088 001:030 JLINK_ClrBPEx(BPHandle = 0x00000001)  returns 0x00 (0000ms, 0956ms total)
T1088 001:030 JLINK_ReadReg(R0)  returns 0x00000000 (0000ms, 0956ms total)
T1088 001:031 JLINK_WriteReg(R0, 0x00000000)  returns 0x00 (0000ms, 0956ms total)
T1088 001:031 JLINK_WriteReg(R1, 0x00001000)  returns 0x00 (0000ms, 0956ms total)
T1088 001:031 JLINK_WriteReg(R2, 0x000000FF)  returns 0x00 (0000ms, 0956ms total)
T1088 001:031 JLINK_WriteReg(R3, 0x00000000)  returns 0x00 (0000ms, 0956ms total)
T1088 001:031 JLINK_WriteReg(R4, 0x00000000)  returns 0x00 (0000ms, 0956ms total)
T1088 001:031 JLINK_WriteReg(R5, 0x00000000)  returns 0x00 (0000ms, 0956ms total)
T1088 001:031 JLINK_WriteReg(R6, 0x00000000)  returns 0x00 (0000ms, 0956ms total)
T1088 001:031 JLINK_WriteReg(R7, 0x00000000)  returns 0x00 (0000ms, 0956ms total)
T1088 001:031 JLINK_WriteReg(R8, 0x00000000)  returns 0x00 (0000ms, 0956ms total)
T1088 001:031 JLINK_WriteReg(R9, 0x100001CC)  returns 0x00 (0000ms, 0956ms total)
T1088 001:031 JLINK_WriteReg(R10, 0x00000000)  returns 0x00 (0000ms, 0956ms total)
T1088 001:031 JLINK_WriteReg(R11, 0x00000000)  returns 0x00 (0000ms, 0956ms total)
T1088 001:031 JLINK_WriteReg(R12, 0x00000000)  returns 0x00 (0000ms, 0956ms total)
T1088 001:031 JLINK_WriteReg(R13, 0x10000800)  returns 0x00 (0000ms, 0956ms total)
T1088 001:031 JLINK_WriteReg(R14, 0x10000001)  returns 0x00 (0000ms, 0956ms total)
T1088 001:031 JLINK_WriteReg(R15, 0x10000020)  returns 0x00 (0000ms, 0956ms total)
T1088 001:031 JLINK_WriteReg(XPSR, 0x01000000)  returns 0x00 (0000ms, 0956ms total)
T1088 001:031 JLINK_WriteReg(MSP, 0x10000800)  returns 0x00 (0000ms, 0956ms total)
T1088 001:031 JLINK_WriteReg(PSP, 0x10000800)  returns 0x00 (0000ms, 0956ms total)
T1088 001:031 JLINK_WriteReg(CFBP, 0x00000000)  returns 0x00 (0000ms, 0956ms total)
T1088 001:031 JLINK_SetBPEx(Addr = 0x10000000, Type = 0xFFFFFFF2)  returns 0x00000002 (0000ms, 0956ms total)
T1088 001:031 JLINK_Go() >0x1D0 JTAG> >0x1D0 JTAG> >0x1D0 JTAG> >0x1D0 JTAG> >0x1D0 JTAG> >0x1D0 JTAG> >0x2C8 JTAG> >0x1E8 JTAG> >0x1E8 JTAG> >0x1E8 JTAG> >0x1E8 JTAG> >0x1E8 JTAG> >0x218 JTAG> >0x218 JTAG> (0017ms, 0956ms total)
T1088 001:048 JLINK_IsHalted() >0x170 JTAG> >0x1598 JTAG>  returns TRUE (0010ms, 0973ms total)
T1088 001:058 JLINK_ReadReg(R15)  returns 0x10000000 (0000ms, 0973ms total)
T1088 001:058 JLINK_ClrBPEx(BPHandle = 0x00000002)  returns 0x00 (0000ms, 0973ms total)
T1088 001:058 JLINK_ReadReg(R0)  returns 0x00000001 (0000ms, 0973ms total)
T1088 001:058 JLINK_WriteReg(R0, 0x00000000)  returns 0x00 (0000ms, 0973ms total)
T1088 001:058 JLINK_WriteReg(R1, 0x00001000)  returns 0x00 (0000ms, 0973ms total)
T1088 001:058 JLINK_WriteReg(R2, 0x000000FF)  returns 0x00 (0000ms, 0973ms total)
T1088 001:058 JLINK_WriteReg(R3, 0x00000000)  returns 0x00 (0000ms, 0973ms total)
T1088 001:058 JLINK_WriteReg(R4, 0x00000000)  returns 0x00 (0000ms, 0973ms total)
T1088 001:058 JLINK_WriteReg(R5, 0x00000000)  returns 0x00 (0000ms, 0973ms total)
T1088 001:058 JLINK_WriteReg(R6, 0x00000000)  returns 0x00 (0000ms, 0973ms total)
T1088 001:058 JLINK_WriteReg(R7, 0x00000000)  returns 0x00 (0000ms, 0973ms total)
T1088 001:058 JLINK_WriteReg(R8, 0x00000000)  returns 0x00 (0000ms, 0973ms total)
T1088 001:058 JLINK_WriteReg(R9, 0x100001CC)  returns 0x00 (0001ms, 0973ms total)
T1088 001:059 JLINK_WriteReg(R10, 0x00000000)  returns 0x00 (0000ms, 0974ms total)
T1088 001:059 JLINK_WriteReg(R11, 0x00000000)  returns 0x00 (0000ms, 0974ms total)
T1088 001:059 JLINK_WriteReg(R12, 0x00000000)  returns 0x00 (0000ms, 0974ms total)
T1088 001:059 JLINK_WriteReg(R13, 0x10000800)  returns 0x00 (0000ms, 0974ms total)
T1088 001:059 JLINK_WriteReg(R14, 0x10000001)  returns 0x00 (0000ms, 0974ms total)
T1088 001:059 JLINK_WriteReg(R15, 0x100000E6)  returns 0x00 (0000ms, 0974ms total)
T1088 001:059 JLINK_WriteReg(XPSR, 0x01000000)  returns 0x00 (0000ms, 0974ms total)
T1088 001:059 JLINK_WriteReg(MSP, 0x10000800)  returns 0x00 (0000ms, 0974ms total)
T1088 001:059 JLINK_WriteReg(PSP, 0x10000800)  returns 0x00 (0000ms, 0974ms total)
T1088 001:059 JLINK_WriteReg(CFBP, 0x00000000)  returns 0x00 (0000ms, 0974ms total)
T1088 001:059 JLINK_SetBPEx(Addr = 0x10000000, Type = 0xFFFFFFF2)  returns 0x00000003 (0000ms, 0974ms total)
T1088 001:059 JLINK_Go() >0x1D0 JTAG> >0x1D0 JTAG> >0x1D0 JTAG> >0x1D0 JTAG> >0x1D0 JTAG> >0x1D0 JTAG> >0x2C8 JTAG> >0x1E8 JTAG> >0x1E8 JTAG> >0x1E8 JTAG> >0x218 JTAG> >0x218 JTAG> (0014ms, 0974ms total)
T1088 001:073 JLINK_IsHalted() >0x170 JTAG>  returns FALSE (0001ms, 0988ms total)
T1088 001:124 JLINK_IsHalted() >0x170 JTAG>  returns FALSE (0000ms, 0988ms total)
T1088 001:175 JLINK_IsHalted() >0x170 JTAG> >0x1598 JTAG>  returns TRUE (0011ms, 0988ms total)
T1088 001:186 JLINK_ReadReg(R15)  returns 0x10000000 (0000ms, 0988ms total)
T1088 001:186 JLINK_ClrBPEx(BPHandle = 0x00000003)  returns 0x00 (0000ms, 0988ms total)
T1088 001:186 JLINK_ReadReg(R0)  returns 0x00000000 (0000ms, 0988ms total)
T1088 001:187 JLINK_WriteReg(R0, 0x00001000)  returns 0x00 (0000ms, 0988ms total)
T1088 001:187 JLINK_WriteReg(R1, 0x00001000)  returns 0x00 (0000ms, 0988ms total)
T1088 001:187 JLINK_WriteReg(R2, 0x000000FF)  returns 0x00 (0000ms, 0988ms total)
T1088 001:187 JLINK_WriteReg(R3, 0x00000000)  returns 0x00 (0000ms, 0988ms total)
T1088 001:187 JLINK_WriteReg(R4, 0x00000000)  returns 0x00 (0000ms, 0988ms total)
T1088 001:187 JLINK_WriteReg(R5, 0x00000000)  returns 0x00 (0000ms, 0988ms total)
T1088 001:187 JLINK_WriteReg(R6, 0x00000000)  returns 0x00 (0000ms, 0988ms total)
T1088 001:187 JLINK_WriteReg(R7, 0x00000000)  returns 0x00 (0000ms, 0988ms total)
T1088 001:187 JLINK_WriteReg(R8, 0x00000000)  returns 0x00 (0000ms, 0988ms total)
T1088 001:187 JLINK_WriteReg(R9, 0x100001CC)  returns 0x00 (0000ms, 0988ms total)
T1088 001:187 JLINK_WriteReg(R10, 0x00000000)  returns 0x00 (0000ms, 0988ms total)
T1088 001:187 JLINK_WriteReg(R11, 0x00000000)  returns 0x00 (0000ms, 0988ms total)
T1088 001:187 JLINK_WriteReg(R12, 0x00000000)  returns 0x00 (0000ms, 0988ms total)
T1088 001:187 JLINK_WriteReg(R13, 0x10000800)  returns 0x00 (0000ms, 0988ms total)
T1088 001:187 JLINK_WriteReg(R14, 0x10000001)  returns 0x00 (0000ms, 0988ms total)
T1088 001:187 JLINK_WriteReg(R15, 0x10000020)  returns 0x00 (0000ms, 0988ms total)
T1088 001:187 JLINK_WriteReg(XPSR, 0x01000000)  returns 0x00 (0000ms, 0988ms total)
T1088 001:187 JLINK_WriteReg(MSP, 0x10000800)  returns 0x00 (0000ms, 0988ms total)
T1088 001:187 JLINK_WriteReg(PSP, 0x10000800)  returns 0x00 (0000ms, 0988ms total)
T1088 001:187 JLINK_WriteReg(CFBP, 0x00000000)  returns 0x00 (0000ms, 0988ms total)
T1088 001:187 JLINK_SetBPEx(Addr = 0x10000000, Type = 0xFFFFFFF2)  returns 0x00000004 (0000ms, 0988ms total)
T1088 001:187 JLINK_Go() >0x1D0 JTAG> >0x1D0 JTAG> >0x1D0 JTAG> >0x1D0 JTAG> >0x1D0 JTAG> >0x1D0 JTAG> >0x2C8 JTAG> >0x1E8 JTAG> >0x1E8 JTAG> >0x1E8 JTAG> >0x1E8 JTAG> >0x1E8 JTAG> >0x1E8 JTAG> >0x218 JTAG> >0x218 JTAG> (0021ms, 0988ms total)
T1088 001:208 JLINK_IsHalted() >0x170 JTAG> >0x1598 JTAG>  returns TRUE (0010ms, 1009ms total)
T1088 001:218 JLINK_ReadReg(R15)  returns 0x10000000 (0000ms, 1009ms total)
T1088 001:218 JLINK_ClrBPEx(BPHandle = 0x00000004)  returns 0x00 (0000ms, 1009ms total)
T1088 001:218 JLINK_ReadReg(R0)  returns 0x00000001 (0000ms, 1009ms total)
T1088 001:218 JLINK_WriteReg(R0, 0x00001000)  returns 0x00 (0000ms, 1009ms total)
T1088 001:218 JLINK_WriteReg(R1, 0x00001000)  returns 0x00 (0000ms, 1009ms total)
T1088 001:218 JLINK_WriteReg(R2, 0x000000FF)  returns 0x00 (0000ms, 1009ms total)
T1088 001:218 JLINK_WriteReg(R3, 0x00000000)  returns 0x00 (0000ms, 1009ms total)
T1088 001:218 JLINK_WriteReg(R4, 0x00000000)  returns 0x00 (0000ms, 1009ms total)
T1088 001:218 JLINK_WriteReg(R5, 0x00000000)  returns 0x00 (0000ms, 1009ms total)
T1088 001:218 JLINK_WriteReg(R6, 0x00000000)  returns 0x00 (0000ms, 1009ms total)
T1088 001:218 JLINK_WriteReg(R7, 0x00000000)  returns 0x00 (0000ms, 1009ms total)
T1088 001:218 JLINK_WriteReg(R8, 0x00000000)  returns 0x00 (0000ms, 1009ms total)
T1088 001:218 JLINK_WriteReg(R9, 0x100001CC)  returns 0x00 (0001ms, 1009ms total)
T1088 001:219 JLINK_WriteReg(R10, 0x00000000)  returns 0x00 (0000ms, 1010ms total)
T1088 001:219 JLINK_WriteReg(R11, 0x00000000)  returns 0x00 (0000ms, 1010ms total)
T1088 001:219 JLINK_WriteReg(R12, 0x00000000)  returns 0x00 (0000ms, 1010ms total)
T1088 001:219 JLINK_WriteReg(R13, 0x10000800)  returns 0x00 (0000ms, 1010ms total)
T1088 001:219 JLINK_WriteReg(R14, 0x10000001)  returns 0x00 (0000ms, 1010ms total)
T1088 001:219 JLINK_WriteReg(R15, 0x100000E6)  returns 0x00 (0000ms, 1010ms total)
T1088 001:219 JLINK_WriteReg(XPSR, 0x01000000)  returns 0x00 (0000ms, 1010ms total)
T1088 001:219 JLINK_WriteReg(MSP, 0x10000800)  returns 0x00 (0000ms, 1010ms total)
T1088 001:219 JLINK_WriteReg(PSP, 0x10000800)  returns 0x00 (0000ms, 1010ms total)
T1088 001:219 JLINK_WriteReg(CFBP, 0x00000000)  returns 0x00 (0000ms, 1010ms total)
T1088 001:219 JLINK_SetBPEx(Addr = 0x10000000, Type = 0xFFFFFFF2)  returns 0x00000005 (0000ms, 1010ms total)
T1088 001:219 JLINK_Go() >0x1D0 JTAG> >0x1D0 JTAG> >0x1D0 JTAG> >0x1D0 JTAG> >0x1D0 JTAG> >0x1D0 JTAG> >0x2C8 JTAG> >0x1E8 JTAG> >0x1E8 JTAG> >0x218 JTAG> >0x218 JTAG> (0015ms, 1010ms total)
T1088 001:234 JLINK_IsHalted() >0x170 JTAG>  returns FALSE (0001ms, 1025ms total)
T1088 001:285 JLINK_IsHalted() >0x170 JTAG>  returns FALSE (0000ms, 1025ms total)
T1088 001:335 JLINK_IsHalted() >0x170 JTAG> >0x1598 JTAG>  returns TRUE (0010ms, 1025ms total)
T1088 001:345 JLINK_ReadReg(R15)  returns 0x10000000 (0000ms, 1025ms total)
T1088 001:345 JLINK_ClrBPEx(BPHandle = 0x00000005)  returns 0x00 (0000ms, 1025ms total)
T1088 001:345 JLINK_ReadReg(R0)  returns 0x00000000 (0000ms, 1025ms total)
T1088 001:346 JLINK_WriteReg(R0, 0x00002000)  returns 0x00 (0000ms, 1025ms total)
T1088 001:346 JLINK_WriteReg(R1, 0x00001000)  returns 0x00 (0000ms, 1025ms total)
T1088 001:346 JLINK_WriteReg(R2, 0x000000FF)  returns 0x00 (0000ms, 1025ms total)
T1088 001:346 JLINK_WriteReg(R3, 0x00000000)  returns 0x00 (0000ms, 1025ms total)
T1088 001:346 JLINK_WriteReg(R4, 0x00000000)  returns 0x00 (0000ms, 1025ms total)
T1088 001:346 JLINK_WriteReg(R5, 0x00000000)  returns 0x00 (0000ms, 1025ms total)
T1088 001:346 JLINK_WriteReg(R6, 0x00000000)  returns 0x00 (0000ms, 1025ms total)
T1088 001:346 JLINK_WriteReg(R7, 0x00000000)  returns 0x00 (0000ms, 1025ms total)
T1088 001:346 JLINK_WriteReg(R8, 0x00000000)  returns 0x00 (0000ms, 1025ms total)
T1088 001:346 JLINK_WriteReg(R9, 0x100001CC)  returns 0x00 (0000ms, 1025ms total)
T1088 001:346 JLINK_WriteReg(R10, 0x00000000)  returns 0x00 (0000ms, 1025ms total)
T1088 001:346 JLINK_WriteReg(R11, 0x00000000)  returns 0x00 (0000ms, 1025ms total)
T1088 001:346 JLINK_WriteReg(R12, 0x00000000)  returns 0x00 (0000ms, 1025ms total)
T1088 001:346 JLINK_WriteReg(R13, 0x10000800)  returns 0x00 (0000ms, 1025ms total)
T1088 001:346 JLINK_WriteReg(R14, 0x10000001)  returns 0x00 (0000ms, 1025ms total)
T1088 001:346 JLINK_WriteReg(R15, 0x10000020)  returns 0x00 (0000ms, 1025ms total)
T1088 001:346 JLINK_WriteReg(XPSR, 0x01000000)  returns 0x00 (0000ms, 1025ms total)
T1088 001:346 JLINK_WriteReg(MSP, 0x10000800)  returns 0x00 (0000ms, 1025ms total)
T1088 001:346 JLINK_WriteReg(PSP, 0x10000800)  returns 0x00 (0000ms, 1025ms total)
T1088 001:346 JLINK_WriteReg(CFBP, 0x00000000)  returns 0x00 (0000ms, 1025ms total)
T1088 001:346 JLINK_SetBPEx(Addr = 0x10000000, Type = 0xFFFFFFF2)  returns 0x00000006 (0000ms, 1025ms total)
T1088 001:346 JLINK_Go() >0x1D0 JTAG> >0x1D0 JTAG> >0x1D0 JTAG> >0x1D0 JTAG> >0x1D0 JTAG> >0x1D0 JTAG> >0x2C8 JTAG> >0x1E8 JTAG> >0x1E8 JTAG> >0x1E8 JTAG> >0x1E8 JTAG> >0x1E8 JTAG> >0x1E8 JTAG> >0x218 JTAG> >0x218 JTAG> (0020ms, 1025ms total)
T1088 001:366 JLINK_IsHalted() >0x170 JTAG> >0x1598 JTAG>  returns TRUE (0010ms, 1045ms total)
T1088 001:376 JLINK_ReadReg(R15)  returns 0x10000000 (0000ms, 1045ms total)
T1088 001:376 JLINK_ClrBPEx(BPHandle = 0x00000006)  returns 0x00 (0000ms, 1045ms total)
T1088 001:376 JLINK_ReadReg(R0)  returns 0x00000001 (0000ms, 1045ms total)
T1088 001:376 JLINK_WriteReg(R0, 0x00002000)  returns 0x00 (0000ms, 1045ms total)
T1088 001:376 JLINK_WriteReg(R1, 0x00001000)  returns 0x00 (0000ms, 1045ms total)
T1088 001:376 JLINK_WriteReg(R2, 0x000000FF)  returns 0x00 (0000ms, 1045ms total)
T1088 001:376 JLINK_WriteReg(R3, 0x00000000)  returns 0x00 (0000ms, 1045ms total)
T1088 001:376 JLINK_WriteReg(R4, 0x00000000)  returns 0x00 (0000ms, 1045ms total)
T1088 001:376 JLINK_WriteReg(R5, 0x00000000)  returns 0x00 (0000ms, 1045ms total)
T1088 001:376 JLINK_WriteReg(R6, 0x00000000)  returns 0x00 (0000ms, 1045ms total)
T1088 001:376 JLINK_WriteReg(R7, 0x00000000)  returns 0x00 (0000ms, 1045ms total)
T1088 001:376 JLINK_WriteReg(R8, 0x00000000)  returns 0x00 (0000ms, 1045ms total)
T1088 001:376 JLINK_WriteReg(R9, 0x100001CC)  returns 0x00 (0000ms, 1045ms total)
T1088 001:376 JLINK_WriteReg(R10, 0x00000000)  returns 0x00 (0000ms, 1045ms total)
T1088 001:376 JLINK_WriteReg(R11, 0x00000000)  returns 0x00 (0000ms, 1045ms total)
T1088 001:376 JLINK_WriteReg(R12, 0x00000000)  returns 0x00 (0000ms, 1045ms total)
T1088 001:376 JLINK_WriteReg(R13, 0x10000800)  returns 0x00 (0000ms, 1045ms total)
T1088 001:376 JLINK_WriteReg(R14, 0x10000001)  returns 0x00 (0000ms, 1045ms total)
T1088 001:376 JLINK_WriteReg(R15, 0x100000E6)  returns 0x00 (0000ms, 1045ms total)
T1088 001:376 JLINK_WriteReg(XPSR, 0x01000000)  returns 0x00 (0001ms, 1045ms total)
T1088 001:377 JLINK_WriteReg(MSP, 0x10000800)  returns 0x00 (0000ms, 1046ms total)
T1088 001:377 JLINK_WriteReg(PSP, 0x10000800)  returns 0x00 (0000ms, 1046ms total)
T1088 001:377 JLINK_WriteReg(CFBP, 0x00000000)  returns 0x00 (0000ms, 1046ms total)
T1088 001:377 JLINK_SetBPEx(Addr = 0x10000000, Type = 0xFFFFFFF2)  returns 0x00000007 (0000ms, 1046ms total)
T1088 001:377 JLINK_Go() >0x1D0 JTAG> >0x1D0 JTAG> >0x1D0 JTAG> >0x1D0 JTAG> >0x1D0 JTAG> >0x1D0 JTAG> >0x2C8 JTAG> >0x1E8 JTAG> >0x1E8 JTAG> >0x1E8 JTAG> >0x218 JTAG> >0x218 JTAG> (0014ms, 1046ms total)
T1088 001:391 JLINK_IsHalted() >0x170 JTAG>  returns FALSE (0000ms, 1060ms total)
T1088 001:441 JLINK_IsHalted() >0x170 JTAG>  returns FALSE (0000ms, 1060ms total)
T1088 001:491 JLINK_IsHalted() >0x170 JTAG> >0x1598 JTAG>  returns TRUE (0010ms, 1060ms total)
T1088 001:501 JLINK_ReadReg(R15)  returns 0x10000000 (0000ms, 1060ms total)
T1088 001:501 JLINK_ClrBPEx(BPHandle = 0x00000007)  returns 0x00 (0000ms, 1060ms total)
T1088 001:501 JLINK_ReadReg(R0)  returns 0x00000000 (0000ms, 1060ms total)
T1088 001:502 JLINK_WriteReg(R0, 0x00003000)  returns 0x00 (0000ms, 1060ms total)
T1088 001:502 JLINK_WriteReg(R1, 0x00001000)  returns 0x00 (0000ms, 1060ms total)
T1088 001:502 JLINK_WriteReg(R2, 0x000000FF)  returns 0x00 (0000ms, 1060ms total)
T1088 001:502 JLINK_WriteReg(R3, 0x00000000)  returns 0x00 (0000ms, 1060ms total)
T1088 001:502 JLINK_WriteReg(R4, 0x00000000)  returns 0x00 (0000ms, 1060ms total)
T1088 001:502 JLINK_WriteReg(R5, 0x00000000)  returns 0x00 (0000ms, 1060ms total)
T1088 001:502 JLINK_WriteReg(R6, 0x00000000)  returns 0x00 (0000ms, 1060ms total)
T1088 001:502 JLINK_WriteReg(R7, 0x00000000)  returns 0x00 (0000ms, 1060ms total)
T1088 001:502 JLINK_WriteReg(R8, 0x00000000)  returns 0x00 (0000ms, 1060ms total)
T1088 001:502 JLINK_WriteReg(R9, 0x100001CC)  returns 0x00 (0000ms, 1060ms total)
T1088 001:502 JLINK_WriteReg(R10, 0x00000000)  returns 0x00 (0000ms, 1060ms total)
T1088 001:502 JLINK_WriteReg(R11, 0x00000000)  returns 0x00 (0000ms, 1060ms total)
T1088 001:502 JLINK_WriteReg(R12, 0x00000000)  returns 0x00 (0000ms, 1060ms total)
T1088 001:502 JLINK_WriteReg(R13, 0x10000800)  returns 0x00 (0000ms, 1060ms total)
T1088 001:502 JLINK_WriteReg(R14, 0x10000001)  returns 0x00 (0000ms, 1060ms total)
T1088 001:502 JLINK_WriteReg(R15, 0x10000020)  returns 0x00 (0000ms, 1060ms total)
T1088 001:502 JLINK_WriteReg(XPSR, 0x01000000)  returns 0x00 (0000ms, 1060ms total)
T1088 001:502 JLINK_WriteReg(MSP, 0x10000800)  returns 0x00 (0000ms, 1060ms total)
T1088 001:502 JLINK_WriteReg(PSP, 0x10000800)  returns 0x00 (0000ms, 1060ms total)
T1088 001:502 JLINK_WriteReg(CFBP, 0x00000000)  returns 0x00 (0000ms, 1060ms total)
T1088 001:502 JLINK_SetBPEx(Addr = 0x10000000, Type = 0xFFFFFFF2)  returns 0x00000008 (0000ms, 1060ms total)
T1088 001:502 JLINK_Go() >0x1D0 JTAG> >0x1D0 JTAG> >0x1D0 JTAG> >0x1D0 JTAG> >0x1D0 JTAG> >0x1D0 JTAG> >0x2C8 JTAG> >0x1E8 JTAG> >0x1E8 JTAG> >0x1E8 JTAG> >0x1E8 JTAG> >0x1E8 JTAG> >0x1E8 JTAG> >0x218 JTAG> >0x218 JTAG> (0020ms, 1060ms total)
T1088 001:522 JLINK_IsHalted() >0x170 JTAG> >0x1598 JTAG>  returns TRUE (0011ms, 1080ms total)
T1088 001:533 JLINK_ReadReg(R15)  returns 0x10000000 (0000ms, 1080ms total)
T1088 001:533 JLINK_ClrBPEx(BPHandle = 0x00000008)  returns 0x00 (0000ms, 1080ms total)
T1088 001:533 JLINK_ReadReg(R0)  returns 0x00000001 (0000ms, 1080ms total)
T1088 001:533 JLINK_WriteReg(R0, 0x00003000)  returns 0x00 (0000ms, 1080ms total)
T1088 001:533 JLINK_WriteReg(R1, 0x00001000)  returns 0x00 (0000ms, 1080ms total)
T1088 001:533 JLINK_WriteReg(R2, 0x000000FF)  returns 0x00 (0000ms, 1080ms total)
T1088 001:533 JLINK_WriteReg(R3, 0x00000000)  returns 0x00 (0000ms, 1080ms total)
T1088 001:533 JLINK_WriteReg(R4, 0x00000000)  returns 0x00 (0000ms, 1080ms total)
T1088 001:533 JLINK_WriteReg(R5, 0x00000000)  returns 0x00 (0000ms, 1080ms total)
T1088 001:533 JLINK_WriteReg(R6, 0x00000000)  returns 0x00 (0000ms, 1080ms total)
T1088 001:533 JLINK_WriteReg(R7, 0x00000000)  returns 0x00 (0000ms, 1080ms total)
T1088 001:533 JLINK_WriteReg(R8, 0x00000000)  returns 0x00 (0000ms, 1080ms total)
T1088 001:533 JLINK_WriteReg(R9, 0x100001CC)  returns 0x00 (0000ms, 1080ms total)
T1088 001:533 JLINK_WriteReg(R10, 0x00000000)  returns 0x00 (0000ms, 1080ms total)
T1088 001:533 JLINK_WriteReg(R11, 0x00000000)  returns 0x00 (0000ms, 1080ms total)
T1088 001:533 JLINK_WriteReg(R12, 0x00000000)  returns 0x00 (0000ms, 1080ms total)
T1088 001:533 JLINK_WriteReg(R13, 0x10000800)  returns 0x00 (0000ms, 1080ms total)
T1088 001:533 JLINK_WriteReg(R14, 0x10000001)  returns 0x00 (0000ms, 1080ms total)
T1088 001:533 JLINK_WriteReg(R15, 0x100000E6)  returns 0x00 (0000ms, 1080ms total)
T1088 001:533 JLINK_WriteReg(XPSR, 0x01000000)  returns 0x00 (0000ms, 1080ms total)
T1088 001:533 JLINK_WriteReg(MSP, 0x10000800)  returns 0x00 (0000ms, 1080ms total)
T1088 001:533 JLINK_WriteReg(PSP, 0x10000800)  returns 0x00 (0000ms, 1080ms total)
T1088 001:533 JLINK_WriteReg(CFBP, 0x00000000)  returns 0x00 (0000ms, 1080ms total)
T1088 001:533 JLINK_SetBPEx(Addr = 0x10000000, Type = 0xFFFFFFF2)  returns 0x00000009 (0000ms, 1080ms total)
T1088 001:533 JLINK_Go() >0x1D0 JTAG> >0x1D0 JTAG> >0x1D0 JTAG> >0x1D0 JTAG> >0x1D0 JTAG> >0x1D0 JTAG> >0x2C8 JTAG> >0x1E8 JTAG> >0x1E8 JTAG> >0x1E8 JTAG> >0x218 JTAG> >0x218 JTAG> (0016ms, 1080ms total)
T1088 001:549 JLINK_IsHalted() >0x170 JTAG>  returns FALSE (0001ms, 1096ms total)
T1088 001:600 JLINK_IsHalted() >0x170 JTAG>  returns FALSE (0001ms, 1096ms total)
T1088 001:651 JLINK_IsHalted() >0x170 JTAG> >0x1598 JTAG>  returns TRUE (0011ms, 1096ms total)
T1088 001:662 JLINK_ReadReg(R15)  returns 0x10000000 (0000ms, 1096ms total)
T1088 001:662 JLINK_ClrBPEx(BPHandle = 0x00000009)  returns 0x00 (0000ms, 1096ms total)
T1088 001:662 JLINK_ReadReg(R0)  returns 0x00000000 (0000ms, 1096ms total)
T1088 001:663 JLINK_WriteReg(R0, 0x00004000)  returns 0x00 (0000ms, 1096ms total)
T1088 001:663 JLINK_WriteReg(R1, 0x00001000)  returns 0x00 (0000ms, 1096ms total)
T1088 001:663 JLINK_WriteReg(R2, 0x000000FF)  returns 0x00 (0000ms, 1096ms total)
T1088 001:663 JLINK_WriteReg(R3, 0x00000000)  returns 0x00 (0000ms, 1096ms total)
T1088 001:663 JLINK_WriteReg(R4, 0x00000000)  returns 0x00 (0000ms, 1096ms total)
T1088 001:663 JLINK_WriteReg(R5, 0x00000000)  returns 0x00 (0000ms, 1096ms total)
T1088 001:663 JLINK_WriteReg(R6, 0x00000000)  returns 0x00 (0000ms, 1096ms total)
T1088 001:663 JLINK_WriteReg(R7, 0x00000000)  returns 0x00 (0000ms, 1096ms total)
T1088 001:663 JLINK_WriteReg(R8, 0x00000000)  returns 0x00 (0000ms, 1096ms total)
T1088 001:663 JLINK_WriteReg(R9, 0x100001CC)  returns 0x00 (0000ms, 1096ms total)
T1088 001:663 JLINK_WriteReg(R10, 0x00000000)  returns 0x00 (0000ms, 1096ms total)
T1088 001:663 JLINK_WriteReg(R11, 0x00000000)  returns 0x00 (0000ms, 1096ms total)
T1088 001:663 JLINK_WriteReg(R12, 0x00000000)  returns 0x00 (0000ms, 1096ms total)
T1088 001:663 JLINK_WriteReg(R13, 0x10000800)  returns 0x00 (0000ms, 1096ms total)
T1088 001:663 JLINK_WriteReg(R14, 0x10000001)  returns 0x00 (0000ms, 1096ms total)
T1088 001:663 JLINK_WriteReg(R15, 0x10000020)  returns 0x00 (0000ms, 1096ms total)
T1088 001:663 JLINK_WriteReg(XPSR, 0x01000000)  returns 0x00 (0000ms, 1096ms total)
T1088 001:663 JLINK_WriteReg(MSP, 0x10000800)  returns 0x00 (0000ms, 1096ms total)
T1088 001:663 JLINK_WriteReg(PSP, 0x10000800)  returns 0x00 (0000ms, 1096ms total)
T1088 001:663 JLINK_WriteReg(CFBP, 0x00000000)  returns 0x00 (0000ms, 1096ms total)
T1088 001:663 JLINK_SetBPEx(Addr = 0x10000000, Type = 0xFFFFFFF2)  returns 0x0000000A (0000ms, 1096ms total)
T1088 001:663 JLINK_Go() >0x1D0 JTAG> >0x1D0 JTAG> >0x1D0 JTAG> >0x1D0 JTAG> >0x1D0 JTAG> >0x1D0 JTAG> >0x2C8 JTAG> >0x1E8 JTAG> >0x1E8 JTAG> >0x1E8 JTAG> >0x1E8 JTAG> >0x1E8 JTAG> >0x1E8 JTAG> >0x218 JTAG> >0x218 JTAG> (0019ms, 1096ms total)
T1088 001:682 JLINK_IsHalted() >0x170 JTAG> >0x1598 JTAG>  returns TRUE (0012ms, 1115ms total)
T1088 001:694 JLINK_ReadReg(R15)  returns 0x10000000 (0000ms, 1115ms total)
T1088 001:694 JLINK_ClrBPEx(BPHandle = 0x0000000A)  returns 0x00 (0000ms, 1115ms total)
T1088 001:694 JLINK_ReadReg(R0)  returns 0x00000001 (0000ms, 1115ms total)
T1088 001:694 JLINK_WriteReg(R0, 0x00004000)  returns 0x00 (0000ms, 1115ms total)
T1088 001:694 JLINK_WriteReg(R1, 0x00001000)  returns 0x00 (0000ms, 1115ms total)
T1088 001:694 JLINK_WriteReg(R2, 0x000000FF)  returns 0x00 (0000ms, 1115ms total)
T1088 001:694 JLINK_WriteReg(R3, 0x00000000)  returns 0x00 (0000ms, 1115ms total)
T1088 001:694 JLINK_WriteReg(R4, 0x00000000)  returns 0x00 (0000ms, 1115ms total)
T1088 001:694 JLINK_WriteReg(R5, 0x00000000)  returns 0x00 (0000ms, 1115ms total)
T1088 001:694 JLINK_WriteReg(R6, 0x00000000)  returns 0x00 (0000ms, 1115ms total)
T1088 001:694 JLINK_WriteReg(R7, 0x00000000)  returns 0x00 (0001ms, 1115ms total)
T1088 001:695 JLINK_WriteReg(R8, 0x00000000)  returns 0x00 (0000ms, 1116ms total)
T1088 001:695 JLINK_WriteReg(R9, 0x100001CC)  returns 0x00 (0000ms, 1116ms total)
T1088 001:695 JLINK_WriteReg(R10, 0x00000000)  returns 0x00 (0000ms, 1116ms total)
T1088 001:695 JLINK_WriteReg(R11, 0x00000000)  returns 0x00 (0000ms, 1116ms total)
T1088 001:695 JLINK_WriteReg(R12, 0x00000000)  returns 0x00 (0000ms, 1116ms total)
T1088 001:695 JLINK_WriteReg(R13, 0x10000800)  returns 0x00 (0000ms, 1116ms total)
T1088 001:695 JLINK_WriteReg(R14, 0x10000001)  returns 0x00 (0000ms, 1116ms total)
T1088 001:695 JLINK_WriteReg(R15, 0x100000E6)  returns 0x00 (0000ms, 1116ms total)
T1088 001:695 JLINK_WriteReg(XPSR, 0x01000000)  returns 0x00 (0000ms, 1116ms total)
T1088 001:695 JLINK_WriteReg(MSP, 0x10000800)  returns 0x00 (0000ms, 1116ms total)
T1088 001:695 JLINK_WriteReg(PSP, 0x10000800)  returns 0x00 (0000ms, 1116ms total)
T1088 001:695 JLINK_WriteReg(CFBP, 0x00000000)  returns 0x00 (0000ms, 1116ms total)
T1088 001:695 JLINK_SetBPEx(Addr = 0x10000000, Type = 0xFFFFFFF2)  returns 0x0000000B (0000ms, 1116ms total)
T1088 001:695 JLINK_Go() >0x1D0 JTAG> >0x1D0 JTAG> >0x1D0 JTAG> >0x1D0 JTAG> >0x1D0 JTAG> >0x1D0 JTAG> >0x2C8 JTAG> >0x1E8 JTAG> >0x1E8 JTAG> >0x218 JTAG> >0x218 JTAG> (0014ms, 1116ms total)
T1088 001:709 JLINK_IsHalted() >0x170 JTAG>  returns FALSE (0001ms, 1130ms total)
T1088 001:760 JLINK_IsHalted() >0x170 JTAG>  returns FALSE (0001ms, 1130ms total)
T1088 001:811 JLINK_IsHalted() >0x170 JTAG> >0x1598 JTAG>  returns TRUE (0010ms, 1130ms total)
T1088 001:821 JLINK_ReadReg(R15)  returns 0x10000000 (0000ms, 1130ms total)
T1088 001:821 JLINK_ClrBPEx(BPHandle = 0x0000000B)  returns 0x00 (0000ms, 1130ms total)
T1088 001:821 JLINK_ReadReg(R0)  returns 0x00000000 (0000ms, 1130ms total)
T1088 001:822 JLINK_WriteReg(R0, 0x00005000)  returns 0x00 (0000ms, 1130ms total)
T1088 001:822 JLINK_WriteReg(R1, 0x00001000)  returns 0x00 (0000ms, 1130ms total)
T1088 001:822 JLINK_WriteReg(R2, 0x000000FF)  returns 0x00 (0000ms, 1130ms total)
T1088 001:822 JLINK_WriteReg(R3, 0x00000000)  returns 0x00 (0000ms, 1130ms total)
T1088 001:822 JLINK_WriteReg(R4, 0x00000000)  returns 0x00 (0000ms, 1130ms total)
T1088 001:822 JLINK_WriteReg(R5, 0x00000000)  returns 0x00 (0000ms, 1130ms total)
T1088 001:822 JLINK_WriteReg(R6, 0x00000000)  returns 0x00 (0000ms, 1130ms total)
T1088 001:822 JLINK_WriteReg(R7, 0x00000000)  returns 0x00 (0000ms, 1130ms total)
T1088 001:822 JLINK_WriteReg(R8, 0x00000000)  returns 0x00 (0000ms, 1130ms total)
T1088 001:822 JLINK_WriteReg(R9, 0x100001CC)  returns 0x00 (0000ms, 1130ms total)
T1088 001:822 JLINK_WriteReg(R10, 0x00000000)  returns 0x00 (0000ms, 1130ms total)
T1088 001:822 JLINK_WriteReg(R11, 0x00000000)  returns 0x00 (0000ms, 1130ms total)
T1088 001:822 JLINK_WriteReg(R12, 0x00000000)  returns 0x00 (0000ms, 1130ms total)
T1088 001:822 JLINK_WriteReg(R13, 0x10000800)  returns 0x00 (0000ms, 1130ms total)
T1088 001:822 JLINK_WriteReg(R14, 0x10000001)  returns 0x00 (0000ms, 1130ms total)
T1088 001:822 JLINK_WriteReg(R15, 0x10000020)  returns 0x00 (0000ms, 1130ms total)
T1088 001:822 JLINK_WriteReg(XPSR, 0x01000000)  returns 0x00 (0000ms, 1130ms total)
T1088 001:822 JLINK_WriteReg(MSP, 0x10000800)  returns 0x00 (0000ms, 1130ms total)
T1088 001:822 JLINK_WriteReg(PSP, 0x10000800)  returns 0x00 (0000ms, 1130ms total)
T1088 001:822 JLINK_WriteReg(CFBP, 0x00000000)  returns 0x00 (0000ms, 1130ms total)
T1088 001:822 JLINK_SetBPEx(Addr = 0x10000000, Type = 0xFFFFFFF2)  returns 0x0000000C (0000ms, 1130ms total)
T1088 001:822 JLINK_Go() >0x1D0 JTAG> >0x1D0 JTAG> >0x1D0 JTAG> >0x1D0 JTAG> >0x1D0 JTAG> >0x1D0 JTAG> >0x2C8 JTAG> >0x1E8 JTAG> >0x1E8 JTAG> >0x1E8 JTAG> >0x1E8 JTAG> >0x1E8 JTAG> >0x1E8 JTAG> >0x218 JTAG> >0x218 JTAG> (0020ms, 1130ms total)
T1088 001:842 JLINK_IsHalted() >0x170 JTAG> >0x1598 JTAG>  returns TRUE (0011ms, 1150ms total)
T1088 001:853 JLINK_ReadReg(R15)  returns 0x10000000 (0000ms, 1150ms total)
T1088 001:853 JLINK_ClrBPEx(BPHandle = 0x0000000C)  returns 0x00 (0000ms, 1150ms total)
T1088 001:853 JLINK_ReadReg(R0)  returns 0x00000001 (0000ms, 1150ms total)
T1088 001:853 JLINK_WriteReg(R0, 0x00005000)  returns 0x00 (0000ms, 1150ms total)
T1088 001:853 JLINK_WriteReg(R1, 0x00001000)  returns 0x00 (0000ms, 1150ms total)
T1088 001:853 JLINK_WriteReg(R2, 0x000000FF)  returns 0x00 (0000ms, 1150ms total)
T1088 001:853 JLINK_WriteReg(R3, 0x00000000)  returns 0x00 (0000ms, 1150ms total)
T1088 001:853 JLINK_WriteReg(R4, 0x00000000)  returns 0x00 (0000ms, 1150ms total)
T1088 001:853 JLINK_WriteReg(R5, 0x00000000)  returns 0x00 (0000ms, 1150ms total)
T1088 001:853 JLINK_WriteReg(R6, 0x00000000)  returns 0x00 (0000ms, 1150ms total)
T1088 001:853 JLINK_WriteReg(R7, 0x00000000)  returns 0x00 (0000ms, 1150ms total)
T1088 001:853 JLINK_WriteReg(R8, 0x00000000)  returns 0x00 (0000ms, 1150ms total)
T1088 001:853 JLINK_WriteReg(R9, 0x100001CC)  returns 0x00 (0000ms, 1150ms total)
T1088 001:853 JLINK_WriteReg(R10, 0x00000000)  returns 0x00 (0000ms, 1150ms total)
T1088 001:853 JLINK_WriteReg(R11, 0x00000000)  returns 0x00 (0000ms, 1150ms total)
T1088 001:853 JLINK_WriteReg(R12, 0x00000000)  returns 0x00 (0000ms, 1150ms total)
T1088 001:853 JLINK_WriteReg(R13, 0x10000800)  returns 0x00 (0000ms, 1150ms total)
T1088 001:853 JLINK_WriteReg(R14, 0x10000001)  returns 0x00 (0000ms, 1150ms total)
T1088 001:853 JLINK_WriteReg(R15, 0x100000E6)  returns 0x00 (0000ms, 1150ms total)
T1088 001:853 JLINK_WriteReg(XPSR, 0x01000000)  returns 0x00 (0000ms, 1150ms total)
T1088 001:853 JLINK_WriteReg(MSP, 0x10000800)  returns 0x00 (0000ms, 1150ms total)
T1088 001:853 JLINK_WriteReg(PSP, 0x10000800)  returns 0x00 (0000ms, 1150ms total)
T1088 001:853 JLINK_WriteReg(CFBP, 0x00000000)  returns 0x00 (0000ms, 1150ms total)
T1088 001:853 JLINK_SetBPEx(Addr = 0x10000000, Type = 0xFFFFFFF2)  returns 0x0000000D (0000ms, 1150ms total)
T1088 001:853 JLINK_Go() >0x1D0 JTAG> >0x1D0 JTAG> >0x1D0 JTAG> >0x1D0 JTAG> >0x1D0 JTAG> >0x1D0 JTAG> >0x2C8 JTAG> >0x1E8 JTAG> >0x1E8 JTAG> >0x1E8 JTAG> >0x218 JTAG> >0x218 JTAG> (0016ms, 1150ms total)
T1088 001:869 JLINK_IsHalted() >0x170 JTAG>  returns FALSE (0001ms, 1166ms total)
T1088 001:920 JLINK_IsHalted() >0x170 JTAG>  returns FALSE (0001ms, 1166ms total)
T1088 001:971 JLINK_IsHalted() >0x170 JTAG> >0x1598 JTAG>  returns TRUE (0011ms, 1166ms total)
T1088 001:982 JLINK_ReadReg(R15)  returns 0x10000000 (0000ms, 1166ms total)
T1088 001:982 JLINK_ClrBPEx(BPHandle = 0x0000000D)  returns 0x00 (0000ms, 1166ms total)
T1088 001:982 JLINK_ReadReg(R0)  returns 0x00000000 (0000ms, 1166ms total)
T1088 001:983 JLINK_WriteReg(R0, 0x00000001)  returns 0x00 (0000ms, 1166ms total)
T1088 001:983 JLINK_WriteReg(R1, 0x00001000)  returns 0x00 (0000ms, 1166ms total)
T1088 001:983 JLINK_WriteReg(R2, 0x000000FF)  returns 0x00 (0000ms, 1166ms total)
T1088 001:983 JLINK_WriteReg(R3, 0x00000000)  returns 0x00 (0000ms, 1166ms total)
T1088 001:983 JLINK_WriteReg(R4, 0x00000000)  returns 0x00 (0000ms, 1166ms total)
T1088 001:983 JLINK_WriteReg(R5, 0x00000000)  returns 0x00 (0000ms, 1166ms total)
T1088 001:983 JLINK_WriteReg(R6, 0x00000000)  returns 0x00 (0000ms, 1166ms total)
T1088 001:983 JLINK_WriteReg(R7, 0x00000000)  returns 0x00 (0000ms, 1166ms total)
T1088 001:983 JLINK_WriteReg(R8, 0x00000000)  returns 0x00 (0000ms, 1166ms total)
T1088 001:983 JLINK_WriteReg(R9, 0x100001CC)  returns 0x00 (0000ms, 1166ms total)
T1088 001:983 JLINK_WriteReg(R10, 0x00000000)  returns 0x00 (0000ms, 1166ms total)
T1088 001:983 JLINK_WriteReg(R11, 0x00000000)  returns 0x00 (0000ms, 1166ms total)
T1088 001:983 JLINK_WriteReg(R12, 0x00000000)  returns 0x00 (0000ms, 1166ms total)
T1088 001:983 JLINK_WriteReg(R13, 0x10000800)  returns 0x00 (0000ms, 1166ms total)
T1088 001:983 JLINK_WriteReg(R14, 0x10000001)  returns 0x00 (0000ms, 1166ms total)
T1088 001:983 JLINK_WriteReg(R15, 0x100000A2)  returns 0x00 (0000ms, 1166ms total)
T1088 001:983 JLINK_WriteReg(XPSR, 0x01000000)  returns 0x00 (0000ms, 1166ms total)
T1088 001:983 JLINK_WriteReg(MSP, 0x10000800)  returns 0x00 (0000ms, 1166ms total)
T1088 001:983 JLINK_WriteReg(PSP, 0x10000800)  returns 0x00 (0000ms, 1166ms total)
T1088 001:983 JLINK_WriteReg(CFBP, 0x00000000)  returns 0x00 (0000ms, 1166ms total)
T1088 001:983 JLINK_SetBPEx(Addr = 0x10000000, Type = 0xFFFFFFF2)  returns 0x0000000E (0000ms, 1166ms total)
T1088 001:983 JLINK_Go() >0x1D0 JTAG> >0x1D0 JTAG> >0x1D0 JTAG> >0x1D0 JTAG> >0x1D0 JTAG> >0x1D0 JTAG> >0x2C8 JTAG> >0x1E8 JTAG> >0x1E8 JTAG> >0x1E8 JTAG> >0x1E8 JTAG> >0x1E8 JTAG> >0x1E8 JTAG> >0x218 JTAG> >0x218 JTAG> (0020ms, 1166ms total)
T1088 002:003 JLINK_IsHalted() >0x170 JTAG> >0x1598 JTAG>  returns TRUE (0011ms, 1186ms total)
T1088 002:014 JLINK_ReadReg(R15)  returns 0x10000000 (0000ms, 1186ms total)
T1088 002:014 JLINK_ClrBPEx(BPHandle = 0x0000000E)  returns 0x00 (0000ms, 1186ms total)
T1088 002:014 JLINK_ReadReg(R0)  returns 0x00000000 (0000ms, 1186ms total)
T1088 002:070 JLINK_WriteMem(0x10000000, 0x01D4 Bytes, ...) -- Data:  00 BE 0A E0 0D 78 2D 06 68 40 08 24 40 00 00 D3 ... >0x1720 JTAG>  returns 0x1D4 (0011ms, 1186ms total)
T1088 002:081 JLINK_WriteReg(R0, 0x00000000)  returns 0x00 (0000ms, 1197ms total)
T1088 002:081 JLINK_WriteReg(R1, 0x00B71B00)  returns 0x00 (0000ms, 1197ms total)
T1088 002:081 JLINK_WriteReg(R2, 0x00000002)  returns 0x00 (0000ms, 1197ms total)
T1088 002:081 JLINK_WriteReg(R3, 0x00000000)  returns 0x00 (0000ms, 1197ms total)
T1088 002:081 JLINK_WriteReg(R4, 0x00000000)  returns 0x00 (0000ms, 1197ms total)
T1088 002:081 JLINK_WriteReg(R5, 0x00000000)  returns 0x00 (0000ms, 1197ms total)
T1088 002:081 JLINK_WriteReg(R6, 0x00000000)  returns 0x00 (0000ms, 1197ms total)
T1088 002:081 JLINK_WriteReg(R7, 0x00000000)  returns 0x00 (0000ms, 1197ms total)
T1088 002:081 JLINK_WriteReg(R8, 0x00000000)  returns 0x00 (0000ms, 1197ms total)
T1088 002:081 JLINK_WriteReg(R9, 0x100001CC)  returns 0x00 (0000ms, 1197ms total)
T1088 002:081 JLINK_WriteReg(R10, 0x00000000)  returns 0x00 (0000ms, 1197ms total)
T1088 002:081 JLINK_WriteReg(R11, 0x00000000)  returns 0x00 (0000ms, 1197ms total)
T1088 002:081 JLINK_WriteReg(R12, 0x00000000)  returns 0x00 (0000ms, 1197ms total)
T1088 002:081 JLINK_WriteReg(R13, 0x10000800)  returns 0x00 (0000ms, 1197ms total)
T1088 002:081 JLINK_WriteReg(R14, 0x10000001)  returns 0x00 (0000ms, 1197ms total)
T1088 002:081 JLINK_WriteReg(R15, 0x10000044)  returns 0x00 (0000ms, 1197ms total)
T1088 002:081 JLINK_WriteReg(XPSR, 0x01000000)  returns 0x00 (0000ms, 1197ms total)
T1088 002:081 JLINK_WriteReg(MSP, 0x10000800)  returns 0x00 (0000ms, 1197ms total)
T1088 002:081 JLINK_WriteReg(PSP, 0x10000800)  returns 0x00 (0000ms, 1197ms total)
T1088 002:081 JLINK_WriteReg(CFBP, 0x00000000)  returns 0x00 (0000ms, 1197ms total)
T1088 002:081 JLINK_SetBPEx(Addr = 0x10000000, Type = 0xFFFFFFF2)  returns 0x0000000F (0000ms, 1197ms total)
T1088 002:081 JLINK_Go() >0x1D0 JTAG> >0x1D0 JTAG> >0x1D0 JTAG> >0x1D0 JTAG> >0x1D0 JTAG> >0x1D0 JTAG> >0x2C8 JTAG> >0x1E8 JTAG> >0x1E8 JTAG> >0x1E8 JTAG> >0x218 JTAG> >0x218 JTAG> (0016ms, 1197ms total)
T1088 002:097 JLINK_IsHalted() >0x170 JTAG> >0x1598 JTAG>  returns TRUE (0012ms, 1213ms total)
T1088 002:109 JLINK_ReadReg(R15)  returns 0x10000000 (0000ms, 1213ms total)
T1088 002:109 JLINK_ClrBPEx(BPHandle = 0x0000000F)  returns 0x00 (0000ms, 1213ms total)
T1088 002:109 JLINK_ReadReg(R0)  returns 0x00000000 (0000ms, 1213ms total)
T1088 002:109 JLINK_WriteMem(0x100001F4, 0x0400 Bytes, ...) -- Data:  88 20 00 10 9D 01 00 00 A1 01 00 00 A3 01 00 00 ... >0x30A0 JTAG>  returns 0x400 (0022ms, 1213ms total)
T1088 002:131 JLINK_WriteReg(R0, 0x00000000)  returns 0x00 (0000ms, 1235ms total)
T1088 002:131 JLINK_WriteReg(R1, 0x00000400)  returns 0x00 (0000ms, 1235ms total)
T1088 002:131 JLINK_WriteReg(R2, 0x100001F4)  returns 0x00 (0000ms, 1235ms total)
T1088 002:131 JLINK_WriteReg(R3, 0x00000000)  returns 0x00 (0000ms, 1235ms total)
T1088 002:131 JLINK_WriteReg(R4, 0x00000000)  returns 0x00 (0000ms, 1235ms total)
T1088 002:131 JLINK_WriteReg(R5, 0x00000000)  returns 0x00 (0000ms, 1235ms total)
T1088 002:131 JLINK_WriteReg(R6, 0x00000000)  returns 0x00 (0000ms, 1235ms total)
T1088 002:131 JLINK_WriteReg(R7, 0x00000000)  returns 0x00 (0000ms, 1235ms total)
T1088 002:131 JLINK_WriteReg(R8, 0x00000000)  returns 0x00 (0000ms, 1235ms total)
T1088 002:131 JLINK_WriteReg(R9, 0x100001CC)  returns 0x00 (0000ms, 1235ms total)
T1088 002:131 JLINK_WriteReg(R10, 0x00000000)  returns 0x00 (0000ms, 1235ms total)
T1088 002:131 JLINK_WriteReg(R11, 0x00000000)  returns 0x00 (0000ms, 1235ms total)
T1088 002:131 JLINK_WriteReg(R12, 0x00000000)  returns 0x00 (0000ms, 1235ms total)
T1088 002:131 JLINK_WriteReg(R13, 0x10000800)  returns 0x00 (0000ms, 1235ms total)
T1088 002:131 JLINK_WriteReg(R14, 0x10000001)  returns 0x00 (0001ms, 1235ms total)
T1088 002:132 JLINK_WriteReg(R15, 0x1000012C)  returns 0x00 (0000ms, 1236ms total)
T1088 002:132 JLINK_WriteReg(XPSR, 0x01000000)  returns 0x00 (0000ms, 1236ms total)
T1088 002:132 JLINK_WriteReg(MSP, 0x10000800)  returns 0x00 (0000ms, 1236ms total)
T1088 002:132 JLINK_WriteReg(PSP, 0x10000800)  returns 0x00 (0000ms, 1236ms total)
T1088 002:132 JLINK_WriteReg(CFBP, 0x00000000)  returns 0x00 (0000ms, 1236ms total)
T1088 002:132 JLINK_SetBPEx(Addr = 0x10000000, Type = 0xFFFFFFF2)  returns 0x00000010 (0000ms, 1236ms total)
T1088 002:132 JLINK_Go() >0x1D0 JTAG> >0x1D0 JTAG> >0x1D0 JTAG> >0x1D0 JTAG> >0x1D0 JTAG> >0x1D0 JTAG> >0x2C8 JTAG> >0x1E8 JTAG> >0x1E8 JTAG> >0x1E8 JTAG> >0x1E8 JTAG> >0x1E8 JTAG> >0x218 JTAG> >0x218 JTAG> (0019ms, 1236ms total)
T1088 002:151 JLINK_IsHalted() >0x170 JTAG>  returns FALSE (0001ms, 1255ms total)
T1088 002:202 JLINK_IsHalted() >0x170 JTAG> >0x1598 JTAG>  returns TRUE (0010ms, 1255ms total)
T1088 002:212 JLINK_ReadReg(R15)  returns 0x10000000 (0000ms, 1255ms total)
T1088 002:212 JLINK_ClrBPEx(BPHandle = 0x00000010)  returns 0x00 (0000ms, 1255ms total)
T1088 002:212 JLINK_ReadReg(R0)  returns 0x00000000 (0000ms, 1255ms total)
T1088 002:213 JLINK_WriteMem(0x100001F4, 0x0400 Bytes, ...) -- Data:  F6 B2 76 1C 72 43 50 F8 88 69 C6 F3 0E 06 76 1C ... >0x30A0 JTAG>  returns 0x400 (0021ms, 1255ms total)
T1088 002:234 JLINK_WriteReg(R0, 0x00000400)  returns 0x00 (0000ms, 1276ms total)
T1088 002:234 JLINK_WriteReg(R1, 0x00000400)  returns 0x00 (0000ms, 1276ms total)
T1088 002:234 JLINK_WriteReg(R2, 0x100001F4)  returns 0x00 (0000ms, 1276ms total)
T1088 002:234 JLINK_WriteReg(R3, 0x00000000)  returns 0x00 (0000ms, 1276ms total)
T1088 002:234 JLINK_WriteReg(R4, 0x00000000)  returns 0x00 (0000ms, 1276ms total)
T1088 002:234 JLINK_WriteReg(R5, 0x00000000)  returns 0x00 (0000ms, 1276ms total)
T1088 002:234 JLINK_WriteReg(R6, 0x00000000)  returns 0x00 (0000ms, 1276ms total)
T1088 002:234 JLINK_WriteReg(R7, 0x00000000)  returns 0x00 (0001ms, 1276ms total)
T1088 002:235 JLINK_WriteReg(R8, 0x00000000)  returns 0x00 (0000ms, 1277ms total)
T1088 002:235 JLINK_WriteReg(R9, 0x100001CC)  returns 0x00 (0000ms, 1277ms total)
T1088 002:235 JLINK_WriteReg(R10, 0x00000000)  returns 0x00 (0000ms, 1277ms total)
T1088 002:235 JLINK_WriteReg(R11, 0x00000000)  returns 0x00 (0000ms, 1277ms total)
T1088 002:235 JLINK_WriteReg(R12, 0x00000000)  returns 0x00 (0000ms, 1277ms total)
T1088 002:235 JLINK_WriteReg(R13, 0x10000800)  returns 0x00 (0000ms, 1277ms total)
T1088 002:235 JLINK_WriteReg(R14, 0x10000001)  returns 0x00 (0000ms, 1277ms total)
T1088 002:235 JLINK_WriteReg(R15, 0x1000012C)  returns 0x00 (0000ms, 1277ms total)
